<Qucs Dataset 2.1.0>
<indep frequency 50>
1.000000000000e+03
2.040914285714e+07
4.081728571429e+07
6.122542857143e+07
8.163357142857e+07
1.020417142857e+08
1.224498571429e+08
1.428580000000e+08
1.632661428571e+08
1.836742857143e+08
2.040824285714e+08
2.244905714286e+08
2.448987142857e+08
2.653068571429e+08
2.857150000000e+08
3.061231428571e+08
3.265312857143e+08
3.469394285714e+08
3.673475714286e+08
3.877557142857e+08
4.081638571429e+08
4.285720000000e+08
4.489801428571e+08
4.693882857143e+08
4.897964285714e+08
5.102045714286e+08
5.306127142857e+08
5.510208571429e+08
5.714290000000e+08
5.918371428571e+08
6.122452857143e+08
6.326534285714e+08
6.530615714286e+08
6.734697142857e+08
6.938778571429e+08
7.142860000000e+08
7.346941428571e+08
7.551022857143e+08
7.755104285714e+08
7.959185714286e+08
8.163267142857e+08
8.367348571429e+08
8.571430000000e+08
8.775511428571e+08
8.979592857143e+08
9.183674285714e+08
9.387755714286e+08
9.591837142857e+08
9.795918571429e+08
1.000000000000e+09
</indep>
<dep ac.v(in) frequency>
1.000000000000e+00+j0.000000000000e+00
1.000000000000e+00+j0.000000000000e+00
1.000000000000e+00+j0.000000000000e+00
1.000000000000e+00+j0.000000000000e+00
1.000000000000e+00+j0.000000000000e+00
1.000000000000e+00+j0.000000000000e+00
1.000000000000e+00+j0.000000000000e+00
1.000000000000e+00+j0.000000000000e+00
1.000000000000e+00+j0.000000000000e+00
1.000000000000e+00+j0.000000000000e+00
1.000000000000e+00+j0.000000000000e+00
1.000000000000e+00+j0.000000000000e+00
1.000000000000e+00+j0.000000000000e+00
1.000000000000e+00+j0.000000000000e+00
1.000000000000e+00+j0.000000000000e+00
1.000000000000e+00+j0.000000000000e+00
1.000000000000e+00+j0.000000000000e+00
1.000000000000e+00+j0.000000000000e+00
1.000000000000e+00+j0.000000000000e+00
1.000000000000e+00+j0.000000000000e+00
1.000000000000e+00+j0.000000000000e+00
1.000000000000e+00+j0.000000000000e+00
1.000000000000e+00+j0.000000000000e+00
1.000000000000e+00+j0.000000000000e+00
1.000000000000e+00+j0.000000000000e+00
1.000000000000e+00+j0.000000000000e+00
1.000000000000e+00+j0.000000000000e+00
1.000000000000e+00+j0.000000000000e+00
1.000000000000e+00+j0.000000000000e+00
1.000000000000e+00+j0.000000000000e+00
1.000000000000e+00+j0.000000000000e+00
1.000000000000e+00+j0.000000000000e+00
1.000000000000e+00+j0.000000000000e+00
1.000000000000e+00+j0.000000000000e+00
1.000000000000e+00+j0.000000000000e+00
1.000000000000e+00+j0.000000000000e+00
1.000000000000e+00+j0.000000000000e+00
1.000000000000e+00+j0.000000000000e+00
1.000000000000e+00+j0.000000000000e+00
1.000000000000e+00+j0.000000000000e+00
1.000000000000e+00+j0.000000000000e+00
1.000000000000e+00+j0.000000000000e+00
1.000000000000e+00+j0.000000000000e+00
1.000000000000e+00+j0.000000000000e+00
1.000000000000e+00+j0.000000000000e+00
1.000000000000e+00+j0.000000000000e+00
1.000000000000e+00+j0.000000000000e+00
1.000000000000e+00+j0.000000000000e+00
1.000000000000e+00+j0.000000000000e+00
1.000000000000e+00+j0.000000000000e+00
</dep>
<dep ac.v(out) frequency>
9.999999999605e-01-j6.283185306932e-06
9.838219645691e-01-j1.261598454362e-01
9.382860640317e-01-j2.406352552632e-01
8.710900454861e-01-j3.351002508819e-01
7.917118828126e-01-j4.060839536672e-01
7.086823273827e-01-j4.543695480973e-01
6.281651234068e-01-j4.832946318160e-01
5.538044075162e-01-j4.970966563273e-01
4.872510464776e-01-j4.998374377576e-01
4.288434074182e-01-j4.949108397804e-01
3.781773818432e-01-j4.849322114538e-01
3.344979446459e-01-j4.718146560606e-01
2.969356442388e-01-j4.569079419525e-01
2.646345459028e-01-j4.411384170729e-01
2.368128356188e-01-j4.251264711883e-01
2.127851108973e-01-j4.092769325013e-01
1.919645663931e-01-j3.938453651405e-01
1.738556743457e-01-j3.789853280056e-01
1.580431728952e-01-j3.647814803364e-01
1.441803580667e-01-j3.512725187293e-01
1.319780955691e-01-j3.384669523884e-01
1.211951206406e-01-j3.263538928426e-01
1.116297613995e-01-j3.149103964136e-01
1.031130161913e-01-j3.041064321635e-01
9.550283128268e-02-j2.939082178158e-01
8.867940251804e-02-j2.842804356390e-01
8.254133099416e-02-j2.751876808142e-01
7.700248143897e-02-j2.665953849773e-01
7.198941417856e-02-j2.584703821036e-01
6.743928322753e-02-j2.507812319638e-01
6.329811239907e-02-j2.434983806225e-01
5.951937786205e-02-j2.365942127800e-01
5.606283931077e-02-j2.300430337115e-01
5.289357314330e-02-j2.238210067519e-01
4.998117013161e-02-j2.179060640824e-01
4.729906737461e-02-j2.122778028907e-01
4.482399018256e-02-j2.069173750236e-01
4.253548422800e-02-j2.018073755081e-01
4.041552204842e-02-j1.969317334153e-01
3.844817098763e-02-j1.922756072291e-01
3.661931206972e-02-j1.878252859794e-01
3.491640123290e-02-j1.835680967866e-01
3.332826590658e-02-j1.794923190508e-01
3.184493117156e-02-j1.755871052505e-01
3.045747075951e-02-j1.718424081374e-01
2.915787897320e-02-j1.682489140143e-01
2.793896028017e-02-j1.647979817189e-01
2.679423388101e-02-j1.614815869124e-01
2.571785100219e-02-j1.582922712643e-01
2.470452303186e-02-j1.552230961346e-01
</dep>
<dep ac.tf frequency>
-1.714526019175e-10+j0.000000000000e+00
-7.083485715827e-02+j0.000000000000e+00
-2.766473401963e-01+j0.000000000000e+00
-5.993694919850e-01+j0.000000000000e+00
-1.014328366806e+00+j0.000000000000e+00
-1.495483972313e+00+j0.000000000000e+00
-2.019261798962e+00+j0.000000000000e+00
-2.566435921940e+00+j0.000000000000e+00
-3.122472194674e+00+j0.000000000000e+00
-3.677012619159e+00+j0.000000000000e+00
-4.223044491410e+00+j0.000000000000e+00
-4.756065464512e+00+j0.000000000000e+00
-5.273376664421e+00+j0.000000000000e+00
-5.773534628105e+00+j0.000000000000e+00
-6.255947618843e+00+j0.000000000000e+00
-6.720587639775e+00+j0.000000000000e+00
-7.167789277553e+00+j0.000000000000e+00
-7.598111301357e+00+j0.000000000000e+00
-8.012242599508e+00+j0.000000000000e+00
-8.410939002566e+00+j0.000000000000e+00
-8.794981427552e+00+j0.000000000000e+00
-9.165148646708e+00+j0.000000000000e+00
-9.522200035307e+00+j0.000000000000e+00
-9.866865092726e+00+j0.000000000000e+00
-1.019983753105e+01+j0.000000000000e+00
-1.052177241629e+01+j0.000000000000e+00
-1.083328532324e+01+j0.000000000000e+00
-1.113495279271e+01+j0.000000000000e+00
-1.142731360539e+01+j0.000000000000e+00
-1.171087054219e+01+j0.000000000000e+00
-1.198609240802e+01+j0.000000000000e+00
-1.225341616987e+01+j0.000000000000e+00
-1.251324911111e+01+j0.000000000000e+00
-1.276597093900e+01+j0.000000000000e+00
-1.301193580627e+01+j0.000000000000e+00
-1.325147422435e+01+j0.000000000000e+00
-1.348489485661e+01+j0.000000000000e+00
-1.371248618781e+01+j0.000000000000e+00
-1.393451807035e+01+j0.000000000000e+00
-1.415124315131e+01+j0.000000000000e+00
-1.436289818612e+01+j0.000000000000e+00
-1.456970524567e+01+j0.000000000000e+00
-1.477187282403e+01+j0.000000000000e+00
-1.496959685445e+01+j0.000000000000e+00
-1.516306164060e+01+j0.000000000000e+00
-1.535244071017e+01+j0.000000000000e+00
-1.553789759746e+01+j0.000000000000e+00
-1.571958656087e+01+j0.000000000000e+00
-1.589765324118e+01+j0.000000000000e+00
-1.607223526581e+01+j0.000000000000e+00
</dep>
<indep time 59>
0.000000000000e+00
1.000000000000e-12
2.000000000000e-12
4.000000000000e-12
8.000000000000e-12
1.600000000000e-11
3.200000000000e-11
6.400000000000e-11
1.280000000000e-10
2.560000000000e-10
4.560000000000e-10
6.560000000000e-10
8.560000000000e-10
1.056000000000e-09
1.256000000000e-09
1.456000000000e-09
1.656000000000e-09
1.856000000000e-09
2.056000000000e-09
2.256000000000e-09
2.456000000000e-09
2.656000000000e-09
2.856000000000e-09
3.056000000000e-09
3.256000000000e-09
3.456000000000e-09
3.656000000000e-09
3.856000000000e-09
4.056000000000e-09
4.256000000000e-09
4.456000000000e-09
4.656000000000e-09
4.856000000000e-09
5.056000000000e-09
5.256000000000e-09
5.456000000000e-09
5.656000000000e-09
5.856000000000e-09
6.056000000000e-09
6.256000000000e-09
6.456000000000e-09
6.656000000000e-09
6.856000000000e-09
7.056000000000e-09
7.256000000000e-09
7.456000000000e-09
7.656000000000e-09
7.856000000000e-09
8.056000000000e-09
8.256000000000e-09
8.456000000000e-09
8.656000000000e-09
8.856000000000e-09
9.056000000000e-09
9.256000000000e-09
9.456000000000e-09
9.656000000000e-09
9.856000000000e-09
1.000000000000e-08
</indep>
<dep tran.v(in) time>
0.000000000000e+00
1.256637061436e-12
2.513274122872e-12
5.026548245744e-12
1.005309649149e-11
2.010619298297e-11
4.021238596595e-11
8.042477193190e-11
1.608495438638e-10
3.216990877276e-10
5.730265000148e-10
8.243539123020e-10
1.075681324589e-09
1.327008736876e-09
1.578336149164e-09
1.829663561451e-09
2.080990973738e-09
2.332318386025e-09
2.583645798312e-09
2.834973210599e-09
3.086300622887e-09
3.337628035174e-09
3.588955447461e-09
3.840282859748e-09
4.091610272035e-09
4.342937684323e-09
4.594265096610e-09
4.845592508897e-09
5.096919921184e-09
5.348247333471e-09
5.599574745758e-09
5.850902158046e-09
6.102229570333e-09
6.353556982620e-09
6.604884394907e-09
6.856211807194e-09
7.107539219482e-09
7.358866631769e-09
7.610194044056e-09
7.861521456343e-09
8.112848868630e-09
8.364176280917e-09
8.615503693205e-09
8.866831105492e-09
9.118158517779e-09
9.369485930066e-09
9.620813342353e-09
9.872140754641e-09
1.012346816693e-08
1.037479557921e-08
1.062612299150e-08
1.087745040379e-08
1.112877781608e-08
1.138010522836e-08
1.163143264065e-08
1.188276005294e-08
1.213408746523e-08
1.238541487751e-08
1.256637061436e-08
</dep>
<dep tran.v(out) time>
0.000000000000e+00
1.255381679756e-15
3.764890911716e-15
1.128965873069e-14
4.134368152464e-14
1.611707815701e-13
6.373313957430e-13
2.517055728127e-12
9.842333382063e-12
3.768377487543e-11
1.121708692383e-10
2.188107486783e-10
3.517574522724e-10
5.062279210833e-10
6.783087432536e-10
8.647980363543e-10
1.063076078398e-09
1.270999460486e-09
1.486814484428e-09
1.709086306251e-09
1.936640962704e-09
2.168517938400e-09
2.403931357112e-09
2.642238229202e-09
2.882912472236e-09
3.125523655135e-09
3.369719607013e-09
3.615212188057e-09
3.861765647509e-09
4.109187098385e-09
4.357318724063e-09
4.606031401852e-09
4.855219485913e-09
5.104796538743e-09
5.354691838747e-09
5.604847522802e-09
5.855216248354e-09
6.105759280585e-09
6.356444927372e-09
6.607247258795e-09
6.858145059466e-09
7.109120971340e-09
7.360160792381e-09
7.611252902738e-09
7.862387795265e-09
8.113557691385e-09
8.364756226807e-09
8.615978194387e-09
8.867219333732e-09
9.118476159067e-09
9.369745818392e-09
9.621025978257e-09
9.872314729470e-09
1.012361050997e-08
1.037491204170e-08
1.062621827899e-08
1.087752836628e-08
1.112884160357e-08
1.130978877195e-08
</dep>
